# HZ S RI R 50
400000000 0.821918592 0.192470928
402500000 0.823287936 0.151811072
405000000 0.823796928 0.109428928
407500000 0.820502528 0.067913032
410000000 0.812955648 0.028144308
412500000 0.804399744 -0.011044302
415000000 0.79440224 -0.051657776
417500000 0.782086208 -0.091722768
420000000 0.764490112 -0.1326634
422500000 0.729817792 -0.14698576
425000000 0.721188992 -0.20899456
427500000 0.699627584 -0.244837632
430000000 0.671515328 -0.27976672
432500000 0.643622464 -0.3121064
435000000 0.612244608 -0.344948128
437500000 0.578247744 -0.376157312
440000000 0.54155232 -0.405660672
442500000 0.50213696 -0.43113408
445000000 0.457231456 -0.452253504
447500000 0.41152272 -0.469018592
450000000 0.360658432 -0.481479264
452500000 0.3115816 -0.488676736
455000000 0.265150048 -0.50121392
457500000 0.214684176 -0.488086656
460000000 0.167357504 -0.479876416
462500000 0.121002424 -0.468100032
465000000 0.075381688 -0.451464928
467500000 0.031808514 -0.430360864
470000000 -0.010326122 -0.402578048
472500000 -0.049112428 -0.368721312
475000000 -0.084394 -0.328571936
477500000 -0.111004672 -0.282163456
480000000 -0.128886848 -0.232369424
482500000 -0.136742352 -0.183181888
485000000 -0.134924032 -0.13775504
487500000 -0.134962688 -0.09334508
490000000 -0.121879592 -0.056657116
492500000 -0.112275336 -0.02100354
495000000 -0.10074564 0.015557694
497500000 -0.084021952 0.052835148
500000000 -0.061162108 0.0903472
502500000 -0.03163303 0.121942816
505000000 0.003570515 0.15016024
507500000 0.044122104 0.172130592
510000000 0.087016816 0.187874064
512500000 0.132797288 0.193502192
515000000 0.177036016 0.191674816
517500000 0.21555296 0.182585664
520000000 0.248535312 0.178685712
522500000 0.285870496 0.158480336
525000000 0.318562016 0.138868576
527500000 0.34710656 0.116798456
530000000 0.372301056 0.094658688
532500000 0.395087392 0.068271608
535000000 0.41542592 0.042938948
537500000 0.43183344 0.013657848
540000000 0.448872032 -0.012840814
542500000 0.461627264 -0.0430539
545000000 0.471344128 -0.074976216
547500000 0.47785104 -0.107163064
550000000 0.484922144 -0.1387604
552500000 0.484622592 -0.173195648
555000000 0.489887264 -0.204671904
557500000 0.485103008 -0.2399716
560000000 0.4778024 -0.27126464
562500000 0.46844432 -0.300887648
565000000 0.45957104 -0.333385056
567500000 0.448342368 -0.360694624
570000000 0.433884064 -0.389956
572500000 0.417857344 -0.415725984
575000000 0.400383936 -0.442138304
577500000 0.384629856 -0.46602016
580000000 0.366573856 -0.49000352
582500000 0.346643328 -0.515076704
585000000 0.327182528 -0.53720288
587500000 0.29967728 -0.55895488
590000000 0.282723904 -0.576136512
592500000 0.255614704 -0.594349696
595000000 0.229576208 -0.609266432
597500000 0.203543376 -0.62258976
600000000 0.178326896 -0.634564224
602500000 0.147345008 -0.650036288
605000000 0.117224144 -0.659352576
607500000 0.085948696 -0.669511744
610000000 0.055677912 -0.675933248
612500000 0.025416572 -0.68242816
615000000 -0.00790315 -0.686506752
617500000 0.000992399 -0.666181056
620000000 -0.069117792 -0.689620864
622500000 -0.100893552 -0.68806272
625000000 -0.132006344 -0.684459456
627500000 -0.163934 -0.682059776
630000000 -0.196546784 -0.673654272
632500000 -0.226198992 -0.666463744
635000000 -0.254842544 -0.657468032
637500000 -0.282880384 -0.648929728
640000000 -0.311043424 -0.63776928
642500000 -0.338786016 -0.625983488
645000000 -0.367924576 -0.613609344
647500000 -0.394106016 -0.60026528
650000000 -0.415202144 -0.58121536
