# HZ S RI R 50
400000000 0.761662912 0.228736
402500000 0.75724544 0.197729328
405000000 0.7501216 0.1623024
407500000 0.742092608 0.133241656
410000000 0.73358848 0.109647368
412500000 0.7303648 0.083517848
415000000 0.72309056 0.057989144
417500000 0.717972352 0.035512836
420000000 0.716945024 0.014078386
422500000 0.73360928 -0.034752408
425000000 0.715518528 -0.040481396
427500000 0.716745664 -0.079822384
430000000 0.71254912 -0.117980208
432500000 0.698719872 -0.158070672
435000000 0.682813376 -0.201800688
437500000 0.656420288 -0.246445408
440000000 0.628775424 -0.28306032
442500000 0.5945296 -0.31532928
445000000 0.555982528 -0.34351792
447500000 0.515921536 -0.368070528
450000000 0.47467616 -0.386615136
452500000 0.430592384 -0.40120304
455000000 0.417421088 -0.371756512
457500000 0.349247232 -0.41551072
460000000 0.308030656 -0.418802112
462500000 0.268153872 -0.416299936
465000000 0.23057688 -0.414069184
467500000 0.188016272 -0.407481088
470000000 0.143556528 -0.397408352
472500000 0.098077368 -0.379693792
475000000 0.05456564 -0.3508136
477500000 0.017718398 -0.311941312
480000000 -0.008831622 -0.264247504
482500000 -0.024175166 -0.21505552
485000000 -0.026820368 -0.166351632
487500000 -0.01951205 -0.12059148
490000000 -0.008355444 -0.082972672
492500000 0.008659324 -0.047506748
495000000 0.030187014 -0.01891311
497500000 0.05307486 0.006157114
500000000 0.078689568 0.026928802
502500000 0.105613696 0.044663972
505000000 0.13775136 0.05889142
507500000 0.170905568 0.06327378
510000000 0.202225216 0.065993676
512500000 0.232845088 0.059978844
515000000 0.26168648 0.05097772
517500000 0.287056768 0.040444972
520000000 0.317632928 0.02049372
522500000 0.334080384 0.009728816
525000000 0.355684672 -0.008857938
527500000 0.374609024 -0.028732264
530000000 0.39247408 -0.053216712
532500000 0.407051552 -0.081451088
535000000 0.417728416 -0.110235248
537500000 0.423261536 -0.139261504
540000000 0.42458976 -0.167964416
542500000 0.424170688 -0.194158224
545000000 0.424075872 -0.221724832
547500000 0.41757968 -0.247931392
550000000 0.412947008 -0.270291744
552500000 0.407373664 -0.293675136
555000000 0.39447424 -0.31782256
557500000 0.385229952 -0.340801024
560000000 0.376287968 -0.362575072
562500000 0.36189248 -0.384348992
565000000 0.353458592 -0.403646752
567500000 0.33835184 -0.42481504
570000000 0.322497568 -0.444781088
572500000 0.304248608 -0.463933408
575000000 0.285102592 -0.479597664
577500000 0.267808848 -0.4923856
580000000 0.250145648 -0.50716608
582500000 0.231587696 -0.518061152
585000000 0.2114484 -0.522955072
587500000 0.195605808 -0.544532672
590000000 0.187709104 -0.554179712
592500000 0.170690224 -0.566720192
595000000 0.150353824 -0.579791168
597500000 0.127000344 -0.591646784
600000000 0.101657472 -0.60280352
602500000 0.080053128 -0.613500736
605000000 0.054164984 -0.623119808
607500000 0.028872816 -0.629924864
610000000 0.00043689 -0.635547072
612500000 -0.025621404 -0.63935232
615000000 -0.052774864 -0.641111104
617500000 -0.078189592 -0.64769696
620000000 -0.109320376 -0.640937536
622500000 -0.136584592 -0.638992128
625000000 -0.163502384 -0.635547712
627500000 -0.189734432 -0.631323392
630000000 -0.21868784 -0.62423456
632500000 -0.243919808 -0.617245568
635000000 -0.2700416 -0.60794592
637500000 -0.294766048 -0.598183104
640000000 -0.318832768 -0.589666048
642500000 -0.343589408 -0.578250432
645000000 -0.36603232 -0.5661712
647500000 -0.388549792 -0.55400832
650000000 -0.402729088 -0.58231424
